! Cascaded network of files/ntwk1.s2p and files/ntwk2.s2p
! Comments from first network ("files/ntwk1.s2p"):
! Created Thu Nov 11 11:09:06 2010
! Comments from second network ("files/ntwk2.s2p"):
! Created Thu Nov 11 11:10:01 2010
# GHz S RI R 50
! Cascaded network of files/ntwk1.s2p and files/ntwk2.s2p
! Comments (after option line) from first network ("files/ntwk1.s2p"):
! 2 Port Network Data from SP1.SP block
! freq  reS11  imS11  reS21  imS21  reS12  imS12  reS22  imS22
!
! Comments (after option line) from second network ("files/ntwk2.s2p"):
! 2 Port Network Data from SP1.SP block
! freq  reS11  imS11  reS21  imS21  reS12  imS12  reS22  imS22
!
1 0.051961338167095014 -0.187880588830479 0.8680843847857623 -0.21877348326615942 0.8680843847857623 -0.21877348326615945 0.05348139477583226 -0.13037058887408742
1.1 0.044101727886085844 -0.20507620064088128 0.8598034889859404 -0.23899977658893637 0.8598034889859405 -0.23899977658893645 0.045963619843506706 -0.14172965500792561
1.2 0.035614996971476534 -0.22184336434996588 0.8508595509218055 -0.2587818056974519 0.8508595509218058 -0.25878180569745196 0.03785987609722434 -0.1526377306614277
1.3 0.026531136793308565 -0.23815445645802338 0.8412835960718732 -0.2780909036013293 0.841283596071873 -0.27809090360132926 0.029202276901029525 -0.16306595094511908
1.4 0.016881509334844565 -0.2539843860890428 0.8311080698214469 -0.29690102574958444 0.8311080698214468 -0.2969010257495843 0.020024402471998423 -0.1729881649355878
1.5 0.0066985994689691105 -0.269310652627628 0.8203665774947217 -0.31518880844428004 0.8203665774947219 -0.31518880844428 0.010361033884732933 -0.1823810018720754
1.6 -0.00398422938916353 -0.28411338038175665 0.8090936314520234 -0.3329336035260163 0.8090936314520233 -0.3329336035260162 0.00024789210941030844 -0.1912239000012759
1.7 -0.015132976714705499 -0.29837532165273223 0.7973244023792172 -0.35011748406167553 0.7973244023792172 -0.35011748406167553 -0.010278620190019183 -0.199499113340414
1.8 -0.026713236848405895 -0.31208183838690556 0.7850944806592893 -0.36672522140570313 0.785094480659289 -0.3667252214057031 -0.021181668531261418 -0.20719169322591963
1.9 -0.03869042420751139 -0.32522086185611376 0.772439637912615 -0.38274424872644736 0.772439637912615 -0.38274424872644736 -0.0324242272161753 -0.2142894442662168
2 -0.05102998370007488 -0.3377828304474245 0.7593956166441505 -0.3981645921679889 0.7593956166441505 -0.3981645921679889 -0.04396930390500003 -0.22078285946912893
2.1 -0.06369759050274702 -0.3497606159753746 0.7459979162864724 -0.4129787947886769 0.7459979162864726 -0.41297879478867694 -0.055780154803604765 -0.22666503414035086
2.2 -0.07665933185366067 -0.361149422149505 0.7322816084373703 -0.4271818130573982 0.73228160843737 -0.427181813057398 -0.06782047875729717 -0.23193156846063068
2.3 -0.0898818762614171 -0.3719466832222682 0.7182811633141312 -0.4407709123152212 0.7182811633141312 -0.4407709123152213 -0.08005459927195782 -0.23658044882741544
2.4 -0.10333262316131239 -0.3821519391468974 0.7040302934245265 -0.45374553603073625 0.7040302934245266 -0.4537455360307364 -0.09244762339637685 -0.24061192270300674
2.5 -0.11697983766020019 -0.39176671544041547 0.689561810395241 -0.4661071807396675 0.6895618103952413 -0.4661071807396677 -0.10496558692048041 -0.2440283586800513
2.6 -0.1307927666614461 -0.40079437972763565 0.6749075097173786 -0.4778592523907081 0.6749075097173786 -0.4778592523907081 -0.11757557959348301 -0.24683410622117374
2.7 -0.14474174081502908 -0.4092400110359144 0.6600980659847516 -0.4890069239613467 0.6600980659847518 -0.4890069239613468 -0.13024585070887001 -0.24903534696020424
2.8 -0.1587982532887242 -0.41711025727083867 0.6451629445416185 -0.4995569894358487 0.6451629445416185 -0.4995569894358487 -0.14294590044806652 -0.2506399417598665
2.9 -0.17293503526514464 -0.424413187051351 0.6301303315154212 -0.5095177164572553 0.6301303315154212 -0.5095177164572553 -0.15564655092750249 -0.2516572775586686
3 -0.1871261001633698 -0.43115815612526576 0.6150270806215974 -0.518898704247929 0.6150270806215975 -0.518898704247929 -0.16832000454659177 -0.25209812040739954
3.1 -0.20134678863384167 -0.43735566669283144 0.599878673908792 -0.5277107295895358 0.5998786739087919 -0.5277107295895357 -0.18093988065758784 -0.2519744626396599
3.2 -0.21557379031278623 -0.4430172272238022 0.5847091925611531 -0.535965620295436 0.584709192561153 -0.5359656202954357 -0.193481249408693 -0.2512993821224937
3.3 -0.22978515807990615 -0.4481552275011992 0.5695413057070903 -0.5436761075636438 0.5695413057070903 -0.5436761075636438 -0.20592063908786434 -0.25008689703069564
3.4 -0.24396031146788028 -0.45278281155867395 0.5543962692753237 -0.5508557025891516 0.5543962692753239 -0.5508557025891517 -0.21823604378423744 -0.24835183377855835
3.5 -0.2580800268736876 -0.45691375438797194 0.5392939274807672 -0.5575185713164744 0.5392939274807672 -0.5575185713164744 -0.230406910224636 -0.2461097003877904
3.6 -0.2721264225648846 -0.4605623544746423 0.5242527392791875 -0.5636794157971561 0.5242527392791878 -0.5636794157971562 -0.24241412649137836 -0.24337656462403232
3.7 -0.28608293555704245 -0.46374332333925006 0.5092897947932996 -0.569353368471978 0.5092897947932995 -0.5693533684719777 -0.2542399883653204 -0.24016893894468175
3.8 -0.2999342885694118 -0.4664716909724296 0.4944208508658984 -0.5745558846865477 0.4944208508658981 -0.5745558846865477 -0.2658681740376473 -0.23650367701652097
3.9 -0.31366645443114494 -0.4687627087905533 0.4796603707374706 -0.5793026528855748 0.4796603707374708 -0.5793026528855751 -0.27728369962685606 -0.23239787473841414
4 -0.3272666178070968 -0.47063177208486706 0.46502155942320245 -0.5836095017681471 0.4650215594232025 -0.5836095017681471 -0.28847287783791936 -0.22786877880453135
4.1 -0.3407231287667963 -0.4720943386182806 0.45051641808307014 -0.5874923278258186 0.4505164180830699 -0.5874923278258185 -0.29942326967087124 -0.22293370875023805
4.2 -0.35402545077746844 -0.4731658577391503 0.4361557864326136 -0.5909670172106668 0.43615578643261355 -0.5909670172106668 -0.31012363484750494 -0.21760997764403606
4.3 -0.3671641220610751 -0.47386171370405 0.4219493996132474 -0.5940493803656816 0.4219493996132474 -0.5940493803656816 -0.3205638716892687 -0.21191482784974577
4.4 -0.3801306913605153 -0.47419716288652153 0.407905936590705 -0.5967551007003158 0.40790593659070495 -0.5967551007003157 -0.3307349721939756 -0.2058653688455793
4.5 -0.3929176751342988 -0.47418728886750805 0.39403307877412647 -0.5990996750214739 0.39403307877412624 -0.5990996750214737 -0.3406289586686555 -0.1994785277741756
4.6 -0.40551850114573845 -0.4738469562280559 0.3803375608029733 -0.6010983742808684 0.38033756080297354 -0.6010983742808684 -0.3502388302636566 -0.19277099760842348
4.7 -0.4179274536291365 -0.47319077109738783 0.36682522721554967 -0.6027661993808824 0.36682522721554955 -0.6027661993808822 -0.35955850421212593 -0.1857592017417727
4.8 -0.43013962943499856 -0.47223305283110245 0.35350108489723336 -0.6041178487600491 0.35350108489723336 -0.604117848760049 -0.3685827628836166 -0.17845925398621065
4.9 -0.4421508768444623 -0.470987801926379 0.34036935604617974 -0.6051676927061197 0.34036935604617974 -0.6051676927061197 -0.37730719561354686 -0.170886934274565
5 -0.4539577525324288 -0.4694686803275257 0.3274335319147563 -0.6059297443580068 0.3274335319147562 -0.605929744358007 -0.3857281503197931 -0.16305766053127654
5.1 -0.46555746767339995 -0.46768898901104805 0.31469642126132696 -0.6064176436990538 0.3146964212613271 -0.606417643699054 -0.39384267433886244 -0.15498646750742737
5.2 -0.4769478453461836 -0.465661655326937 0.302160199063778 -0.6066446362739627 0.3021601990637781 -0.6066446362739629 -0.40164846570234347 -0.14668799351862277
5.3 -0.48812727461616773 -0.46339921892680713 0.28982645678783 -0.6066235705413187 0.28982645678783014 -0.6066235705413188 -0.40914383089724193 -0.1381764695046268
5.4 -0.49909466308871825 -0.46091382650657575 0.27769624300440043 -0.6063668792051387 0.27769624300440054 -0.6063668792051388 -0.41632762714624594 -0.12946570440549293
5.5 -0.5098493987656594 -0.45821722346854044 0.2657701086405347 -0.6058865802162159 0.26577010864053485 -0.605886580216216 -0.42319922723122466 -0.12056908426205963
5.6 -0.5203913078646845 -0.4553207520977165 0.2540481486566043 -0.6051942677265665 0.2540481486566043 -0.6051942677265661 -0.4297584698564023 -0.11149956808813533
5.7 -0.5307206205674652 -0.4522353492166846 0.2425300403766957 -0.6043011159415717 0.24253004037669568 -0.6043011159415718 -0.4360056244103021 -0.10226968511151537
5.8 -0.5408379321276023 -0.44897154982519816 0.2312150813140105 -0.6032178776991536 0.23121508131401042 -0.6032178776991534 -0.44194134826758785 -0.09289154023326548
5.9 -0.5507441711721555 -0.4455394877509525 0.22010222290869344 -0.6019548868431941 0.22010222290869333 -0.6019548868431942 -0.44756665491763425 -0.08337681370608438
6 -0.560440564959357 -0.4419489007970806 0.209190102912054 -0.6005220649356535 0.20919010291205412 -0.6005220649356536 -0.4528828746492191 -0.073736767018347
6.1 -0.5699286138688755 -0.43820913681758444 0.19847707974868833 -0.5989289258570856 0.19847707974868842 -0.5989289258570858 -0.45789162822236057 -0.06398225302357796
6.2 -0.5792100597825641 -0.43432915940080574 0.18796125399632196 -0.5971845823136952 0.1879612539963221 -0.5971845823136954 -0.46259479302925216 -0.0541237142953454
6.3 -0.5882868629047208 -0.43031755781061265 0.17764050547642898 -0.5952977540760288 0.17764050547642893 -0.5952977540760288 -0.46699447380689724 -0.04417120470543224
6.4 -0.5971611754035566 -0.4261825531863432 0.16751250986566674 -0.5932767771829978 0.16751250986566657 -0.5932767771829979 -0.4710929830511738 -0.03413438971026358
6.5 -0.6058353200213059 -0.42193200953364546 0.1575747664594734 -0.591129612147232 0.15757476645947333 -0.591129612147232 -0.47489281020720586 -0.024022557334335302
6.6 -0.6143117679410685 -0.4175734421164457 0.1478246198623435 -0.5888638560136431 0.14782461986234358 -0.5888638560136433 -0.478396600794253 -0.013844635590399017
6.7 -0.6225931219787698 -0.4131140275355934 0.13825927618547582 -0.5864867515720672 0.13825927618547562 -0.5864867515720671 -0.48160713590672455 -0.0036091920346228057
6.8 -0.6306820935647219 -0.4085606170126322 0.1288758266255027 -0.5840051958126256 0.12887582662550284 -0.5840051958126257 -0.4845273151725173 0.006675540890666494
6.9 -0.6385814919417891 -0.40391974444981793 0.11967126226159751 -0.5814257555748255 0.11967126226159744 -0.5814257555748252 -0.4871601363906281 0.017001663681488224
7 -0.6462942050560728 -0.3991976349147198 0.11064248905499555 -0.5787546753322899 0.11064248905499552 -0.5787546753322899 -0.48950867769335693 0.02736159492822612
7.1 -0.6538231882909475 -0.3944002205560954 0.1017863464558712 -0.5759978859353903 0.10178634645587123 -0.5759978859353903 -0.49157608571444367 0.03774805793673475
7.2 -0.6611714495002642 -0.3895331498285901 0.09309961168818803 -0.573161022481396 0.09309961168818809 -0.5731610224813962 -0.4933655599151761 0.04815407146250706
7.3 -0.6683420358450962 -0.3846017948764314 0.08457902471580113 -0.5702494304369464 0.08457902471580096 -0.5702494304369464 -0.49488034381720625 0.058572934416101965
7.4 -0.6753380306324894 -0.3796112663135393 0.0762212881139199 -0.5672681746885113 0.07622128811391977 -0.5672681746885113 -0.4961237054197852 0.06899821446019401
7.5 -0.6821625339301193 -0.3745664226914298 0.06802308158587582 -0.5642220577006584 0.06802308158587565 -0.5642220577006583 -0.49709893380590736 0.07942374216860408
7.6 -0.6888186579412189 -0.3694718794711848 0.05998107443135622 -0.5611156203689494 0.05998107443135635 -0.5611156203689497 -0.4978093289410731 0.08984358679051849
7.7 -0.6953095229831744 -0.3643320190169357 0.052091925165052184 -0.5579531606442529 0.05209192516505224 -0.5579531606442529 -0.4982581896556579 0.100252060763611
7.8 -0.7016382418479614 -0.3591510041032073 0.044352300118886905 -0.5547387390094949 0.04435230011888692 -0.5547387390094949 -0.4984488094100223 0.11064369488243313
7.9 -0.707807922390152 -0.35393278207916884 0.03675887119840856 -0.5514761904090597 0.03675887119840852 -0.5514761904090599 -0.4983844659284374 0.12101323086606663
8 -0.7138216534537656 -0.3486810996116655 0.029308324186732793 -0.5481691310321258 0.029308324186732754 -0.548169131032126 -0.49806841927236867 0.131355620134913
8.1 -0.7196825065149951 -0.34339950728121965 0.02199736824096868 -0.5448209717643406 0.02199736824096874 -0.5448209717643406 -0.4975039027718027 0.14166599692751758
8.2 -0.7253935262654697 -0.3380913711413159 0.01482273512426597 -0.5414349218725266 0.014822735124266037 -0.5414349218725268 -0.4966941179395789 0.15193968314937376
8.3 -0.7309577297340171 -0.3327598807524662 0.007781189580530024 -0.5380140033947804 0.007781189580530024 -0.5380140033947804 -0.4956422353182308 0.16217216728595918
8.4 -0.7363780984518608 -0.32740805788370136 0.000869525416052964 -0.5345610548262635 0.0008695254160530235 -0.5345610548262636 -0.49435138479008917 0.17235910345806002
8.5 -0.7416575815264255 -0.3220387632784034 -0.005915423546806006 -0.5310787415629644 -0.005915423546806124 -0.5310787415629644 -0.4928246524285665 0.18249629575535445
8.6 -0.7467990870653007 -0.31665470331122675 -0.012576786305053992 -0.5275695628117789 -0.012576786305053987 -0.5275695628117787 -0.4910650823823259 0.1925796942864865
8.7 -0.7518054842993689 -0.3112584397695316 -0.01911764641648966 -0.5240358588293418 -0.019117646416489577 -0.5240358588293419 -0.48907567218155806 0.20260538047203375
8.8 -0.7566795964106448 -0.3058523987099578 -0.025541046358645302 -0.5204798185625135 -0.025541046358645243 -0.5204798185625138 -0.4868593655179658 0.21256956658219459
8.9 -0.7614242046540645 -0.3004388713723624 -0.031849979942534835 -0.5169034872261589 -0.031849979942534794 -0.5169034872261589 -0.4844190629229589 0.22246857662690767
9 -0.7660420435748251 -0.2950200245336224 -0.03804739415939058 -0.5133087696566455 -0.03804739415939047 -0.5133087696566452 -0.48175760557074315 0.23229885068939007
9.1 -0.770535797622781 -0.2895979077462158 -0.0441361856636809 -0.5096974400043693 -0.04413618566368085 -0.5096974400043693 -0.47887778687478016 0.24205692904966505
9.2 -0.7749081071695785 -0.28417445598815166 -0.05011920141933057 -0.5060711467095796 -0.05011920141933063 -0.5060711467095798 -0.4757823423344608 0.25173944527059927
9.3 -0.7791615608497438 -0.2787514995219194 -0.05599923721798565 -0.5024314177059059 -0.055999237217985665 -0.5024314177059062 -0.47247395402591974 0.26134312249529046
9.4 -0.7832986980206474 -0.27333076503444326 -0.06177903641319083 -0.49877966552803815 -0.06177903641319086 -0.49877966552803793 -0.4689552534782718 0.2708647657764094
9.5 -0.7873220085266933 -0.2679138847472966 -0.06746128791966798 -0.49511719287142436 -0.06746128791966796 -0.49511719287142425 -0.4652288124822806 0.2803012516062818
9.6 -0.7912339320016473 -0.2625023965886597 -0.0730486329066638 -0.4914451970831825 -0.07304863290666383 -0.4914451970831825 -0.4612971498793995 0.28964952588475407
9.7 -0.7950368582116883 -0.2570977560328003 -0.0785436536491655 -0.4877647772292239 -0.07854365364916549 -0.487764777229224 -0.45716273151236614 0.2989065982531873
9.8 -0.7987331263246553 -0.2517013346494611 -0.08394888129952142 -0.4840769339880752 -0.0839488812995214 -0.48407693398807533 -0.4528279696557725 0.30806952619423483
9.9 -0.8023250268471045 -0.24631442684150456 -0.08926679450337772 -0.48038257914587396 -0.08926679450337778 -0.48038257914587396 -0.4482952225617151 0.3171354248000442
10 -0.8058147994658377 -0.24093825450847123 -0.09449981827912361 -0.4766825334561048 -0.09449981827912365 -0.4766825334561049 -0.4435667971099148 0.32610144932713225
